time,V(1),V(2),V(3),I(V1),I(R1),I(L1),I(C1)
0.000000e+00,1.000000e+00,1.000000e+00,0.000000e+00,0.000000e+00,0.000000e+00,0.000000e+00,0.000000e+00
1.000000e-06,1.000000e+00,9.900522e-01,4.973887e-04,-9.947774e-04,9.947774e-04,9.947774e-04,9.947774e-04
2.000000e-06,1.000000e+00,9.802133e-01,1.984112e-03,-1.978669e-03,1.978669e-03,1.978669e-03,2.973447e-03
3.000000e-06,1.000000e+00,9.704919e-01,4.448850e-03,-2.950806e-03,2.950806e-03,2.950806e-03,6.919030e-03
4.000000e-06,1.000000e+00,9.608966e-01,7.879420e-03,-3.910336e-03,3.910336e-03,3.910336e-03,1.280804e-02
5.000000e-06,1.000000e+00,9.514357e-01,1.226280e-02,-4.856431e-03,4.856431e-03,4.856431e-03,2.061527e-02
6.000000e-06,1.000000e+00,9.421172e-01,1.758516e-02,-5.788283e-03,5.788283e-03,5.788283e-03,3.031389e-02
7.000000e-06,1.000000e+00,9.329489e-01,2.383186e-02,-6.705108e-03,6.705108e-03,6.705108e-03,4.187543e-02
8.000000e-06,1.000000e+00,9.239386e-01,3.098748e-02,-7.606142e-03,7.606142e-03,7.606142e-03,5.526985e-02
9.000000e-06,1.000000e+00,9.150935e-01,3.903587e-02,-8.490646e-03,8.490646e-03,8.490646e-03,7.046561e-02
1.000000e-05,1.000000e+00,9.064209e-01,4.796015e-02,-9.357905e-03,9.357905e-03,9.357905e-03,8.742966e-02
1.100000e-05,1.000000e+00,8.979277e-01,5.774272e-02,-1.020723e-02,1.020723e-02,1.020723e-02,1.061275e-01
1.200000e-05,1.000000e+00,8.896205e-01,6.836531e-02,-1.103795e-02,1.103795e-02,1.103795e-02,1.265234e-01
1.300000e-05,1.000000e+00,8.815058e-01,7.980899e-02,-1.184942e-02,1.184942e-02,1.184942e-02,1.485800e-01
1.400000e-05,1.000000e+00,8.735896e-01,9.205423e-02,-1.264104e-02,1.264104e-02,1.264104e-02,1.722590e-01
1.500000e-05,1.000000e+00,8.658779e-01,1.050808e-01,-1.341221e-02,1.341221e-02,1.341221e-02,1.975207e-01
1.600000e-05,1.000000e+00,8.583764e-01,1.188681e-01,-1.416236e-02,1.416236e-02,1.416236e-02,2.243241e-01
1.700000e-05,1.000000e+00,8.510904e-01,1.333948e-01,-1.489096e-02,1.489096e-02,1.489096e-02,2.526272e-01
1.800000e-05,1.000000e+00,8.440250e-01,1.486390e-01,-1.559750e-02,1.559750e-02,1.559750e-02,2.823871e-01
1.900000e-05,1.000000e+00,8.371850e-01,1.645785e-01,-1.628150e-02,1.628150e-02,1.628150e-02,3.135595e-01
2.000000e-05,1.000000e+00,8.305751e-01,1.811905e-01,-1.694249e-02,1.694249e-02,1.694249e-02,3.460995e-01
2.100000e-05,1.000000e+00,8.241994e-01,1.984518e-01,-1.758006e-02,1.758006e-02,1.758006e-02,3.799611e-01
2.200000e-05,1.000000e+00,8.180620e-01,2.163387e-01,-1.819380e-02,1.819380e-02,1.819380e-02,4.150974e-01
2.300000e-05,1.000000e+00,8.121667e-01,2.348273e-01,-1.878333e-02,1.878333e-02,1.878333e-02,4.514608e-01
2.400000e-05,1.000000e+00,8.065169e-01,2.538931e-01,-1.934831e-02,1.934831e-02,1.934831e-02,4.890029e-01
2.500000e-05,1.000000e+00,8.011158e-01,2.735115e-01,-1.988842e-02,1.988842e-02,1.988842e-02,5.276746e-01
2.600000e-05,1.000000e+00,7.959662e-01,2.936574e-01,-2.040338e-02,2.040338e-02,2.040338e-02,5.674263e-01
2.700000e-05,1.000000e+00,7.910708e-01,3.143055e-01,-2.089292e-02,2.089292e-02,2.089292e-02,6.082077e-01
2.800000e-05,1.000000e+00,7.864320e-01,3.354304e-01,-2.135680e-02,2.135680e-02,2.135680e-02,6.499678e-01
2.900000e-05,1.000000e+00,7.820518e-01,3.570062e-01,-2.179482e-02,2.179482e-02,2.179482e-02,6.926556e-01
3.000000e-05,1.000000e+00,7.779319e-01,3.790070e-01,-2.220681e-02,2.220681e-02,2.220681e-02,7.362192e-01
3.100000e-05,1.000000e+00,7.740740e-01,4.014067e-01,-2.259260e-02,2.259260e-02,2.259260e-02,7.806066e-01
3.200000e-05,1.000000e+00,7.704791e-01,4.241791e-01,-2.295209e-02,2.295209e-02,2.295209e-02,8.257655e-01
3.300000e-05,1.000000e+00,7.671484e-01,4.472977e-01,-2.328516e-02,2.328516e-02,2.328516e-02,8.716433e-01
3.400000e-05,1.000000e+00,7.640824e-01,4.707361e-01,-2.359176e-02,2.359176e-02,2.359176e-02,9.181871e-01
3.500000e-05,1.000000e+00,7.612816e-01,4.944679e-01,-2.387184e-02,2.387184e-02,2.387184e-02,9.653441e-01
3.600000e-05,1.000000e+00,7.587461e-01,5.184666e-01,-2.412539e-02,2.412539e-02,2.412539e-02,1.013061e+00
3.700000e-05,1.000000e+00,7.564759e-01,5.427055e-01,-2.435241e-02,2.435241e-02,2.435241e-02,1.061286e+00
3.800000e-05,1.000000e+00,7.544705e-01,5.671581e-01,-2.455295e-02,2.455295e-02,2.455295e-02,1.109964e+00
3.900000e-05,1.000000e+00,7.527292e-01,5.917982e-01,-2.472708e-02,2.472708e-02,2.472708e-02,1.159043e+00
4.000000e-05,1.000000e+00,7.512513e-01,6.165991e-01,-2.487487e-02,2.487487e-02,2.487487e-02,1.208471e+00
4.100000e-05,1.000000e+00,7.500356e-01,6.415348e-01,-2.499644e-02,2.499644e-02,2.499644e-02,1.258195e+00
4.200000e-05,1.000000e+00,7.490805e-01,6.665790e-01,-2.509195e-02,2.509195e-02,2.509195e-02,1.308162e+00
4.300000e-05,1.000000e+00,7.483846e-01,6.917057e-01,-2.516154e-02,2.516154e-02,2.516154e-02,1.358320e+00
4.400000e-05,1.000000e+00,7.479460e-01,7.168892e-01,-2.520540e-02,2.520540e-02,2.520540e-02,1.408617e+00
4.500000e-05,1.000000e+00,7.477624e-01,7.421038e-01,-2.522376e-02,2.522376e-02,2.522376e-02,1.459002e+00
4.600000e-05,1.000000e+00,7.478316e-01,7.673241e-01,-2.521684e-02,2.521684e-02,2.521684e-02,1.509424e+00
4.700000e-05,1.000000e+00,7.481509e-01,7.925250e-01,-2.518491e-02,2.518491e-02,2.518491e-02,1.559833e+00
4.800000e-05,1.000000e+00,7.487176e-01,8.176815e-01,-2.512824e-02,2.512824e-02,2.512824e-02,1.610178e+00
4.900000e-05,1.000000e+00,7.495286e-01,8.427692e-01,-2.504714e-02,2.504714e-02,2.504714e-02,1.660410e+00
5.000000e-05,1.000000e+00,7.505807e-01,8.677638e-01,-2.494193e-02,2.494193e-02,2.494193e-02,1.710480e+00
5.100000e-05,1.000000e+00,7.518705e-01,8.926412e-01,-2.481295e-02,2.481295e-02,2.481295e-02,1.760340e+00
5.200000e-05,1.000000e+00,7.533943e-01,9.173780e-01,-2.466057e-02,2.466057e-02,2.466057e-02,1.809943e+00
5.300000e-05,1.000000e+00,7.551482e-01,9.419508e-01,-2.448518e-02,2.448518e-02,2.448518e-02,1.859241e+00
5.400000e-05,1.000000e+00,7.571282e-01,9.663370e-01,-2.428718e-02,2.428718e-02,2.428718e-02,1.908189e+00
5.500000e-05,1.000000e+00,7.593302e-01,9.905141e-01,-2.406698e-02,2.406698e-02,2.406698e-02,1.956741e+00
5.600000e-05,1.000000e+00,7.617497e-01,1.014460e+00,-2.382503e-02,2.382503e-02,2.382503e-02,2.004853e+00
5.700000e-05,1.000000e+00,7.643821e-01,1.038154e+00,-2.356179e-02,2.356179e-02,2.356179e-02,2.052482e+00
5.800000e-05,1.000000e+00,7.672227e-01,1.061573e+00,-2.327773e-02,2.327773e-02,2.327773e-02,2.099585e+00
5.900000e-05,1.000000e+00,7.702666e-01,1.084699e+00,-2.297334e-02,2.297334e-02,2.297334e-02,2.146120e+00
6.000000e-05,1.000000e+00,7.735088e-01,1.107510e+00,-2.264912e-02,2.264912e-02,2.264912e-02,2.192047e+00
6.100000e-05,1.000000e+00,7.769440e-01,1.129987e+00,-2.230560e-02,2.230560e-02,2.230560e-02,2.237326e+00
6.200000e-05,1.000000e+00,7.805669e-01,1.152112e+00,-2.194331e-02,2.194331e-02,2.194331e-02,2.281918e+00
6.300000e-05,1.000000e+00,7.843721e-01,1.173865e+00,-2.156279e-02,2.156279e-02,2.156279e-02,2.325786e+00
6.400000e-05,1.000000e+00,7.883540e-01,1.195229e+00,-2.116460e-02,2.116460e-02,2.116460e-02,2.368894e+00
6.500000e-05,1.000000e+00,7.925067e-01,1.216186e+00,-2.074933e-02,2.074933e-02,2.074933e-02,2.411207e+00
6.600000e-05,1.000000e+00,7.968246e-01,1.236719e+00,-2.031754e-02,2.031754e-02,2.031754e-02,2.452689e+00
6.700000e-05,1.000000e+00,8.013016e-01,1.256813e+00,-1.986984e-02,1.986984e-02,1.986984e-02,2.493308e+00
6.800000e-05,1.000000e+00,8.059318e-01,1.276451e+00,-1.940682e-02,1.940682e-02,1.940682e-02,2.533032e+00
6.900000e-05,1.000000e+00,8.107089e-01,1.295619e+00,-1.892911e-02,1.892911e-02,1.892911e-02,2.571831e+00
7.000000e-05,1.000000e+00,8.156269e-01,1.314302e+00,-1.843731e-02,1.843731e-02,1.843731e-02,2.609675e+00
7.100000e-05,1.000000e+00,8.206793e-01,1.332487e+00,-1.793207e-02,1.793207e-02,1.793207e-02,2.646536e+00
7.200000e-05,1.000000e+00,8.258598e-01,1.350160e+00,-1.741402e-02,1.741402e-02,1.741402e-02,2.682388e+00
7.300000e-05,1.000000e+00,8.311620e-01,1.367309e+00,-1.688380e-02,1.688380e-02,1.688380e-02,2.717204e+00
7.400000e-05,1.000000e+00,8.365795e-01,1.383922e+00,-1.634205e-02,1.634205e-02,1.634205e-02,2.750960e+00
7.500000e-05,1.000000e+00,8.421056e-01,1.399987e+00,-1.578944e-02,1.578944e-02,1.578944e-02,2.783633e+00
7.600000e-05,1.000000e+00,8.477338e-01,1.415496e+00,-1.522662e-02,1.522662e-02,1.522662e-02,2.815202e+00
7.700000e-05,1.000000e+00,8.534575e-01,1.430436e+00,-1.465425e-02,1.465425e-02,1.465425e-02,2.845645e+00
7.800000e-05,1.000000e+00,8.592701e-01,1.444800e+00,-1.407299e-02,1.407299e-02,1.407299e-02,2.874945e+00
7.900000e-05,1.000000e+00,8.651648e-01,1.458578e+00,-1.348352e-02,1.348352e-02,1.348352e-02,2.903083e+00
8.000000e-05,1.000000e+00,8.711350e-01,1.471763e+00,-1.288650e-02,1.288650e-02,1.288650e-02,2.930042e+00
8.100000e-05,1.000000e+00,8.771740e-01,1.484347e+00,-1.228260e-02,1.228260e-02,1.228260e-02,2.955808e+00
8.200000e-05,1.000000e+00,8.832751e-01,1.496325e+00,-1.167249e-02,1.167249e-02,1.167249e-02,2.980367e+00
8.300000e-05,1.000000e+00,8.894316e-01,1.507690e+00,-1.105684e-02,1.105684e-02,1.105684e-02,3.003707e+00
8.400000e-05,1.000000e+00,8.956369e-01,1.518436e+00,-1.043631e-02,1.043631e-02,1.043631e-02,3.025816e+00
8.500000e-05,1.000000e+00,9.018843e-01,1.528560e+00,-9.811569e-03,9.811569e-03,9.811569e-03,3.046684e+00
8.600000e-05,1.000000e+00,9.081671e-01,1.538058e+00,-9.183286e-03,9.183286e-03,9.183286e-03,3.066304e+00
8.700000e-05,1.000000e+00,9.144788e-01,1.546925e+00,-8.552118e-03,8.552118e-03,8.552118e-03,3.084667e+00
8.800000e-05,1.000000e+00,9.208128e-01,1.555161e+00,-7.918720e-03,7.918720e-03,7.918720e-03,3.101769e+00
8.900000e-05,1.000000e+00,9.271625e-01,1.562762e+00,-7.283747e-03,7.283747e-03,7.283747e-03,3.117605e+00
9.000000e-05,1.000000e+00,9.335216e-01,1.569728e+00,-6.647844e-03,6.647844e-03,6.647844e-03,3.132172e+00
9.100000e-05,1.000000e+00,9.398835e-01,1.576057e+00,-6.011654e-03,6.011654e-03,6.011654e-03,3.145467e+00
9.200000e-05,1.000000e+00,9.462419e-01,1.581751e+00,-5.375812e-03,5.375812e-03,5.375812e-03,3.157491e+00
9.300000e-05,1.000000e+00,9.525905e-01,1.586810e+00,-4.740948e-03,4.740948e-03,4.740948e-03,3.168243e+00
9.400000e-05,1.000000e+00,9.589232e-01,1.591234e+00,-4.107683e-03,4.107683e-03,4.107683e-03,3.177727e+00
9.500000e-05,1.000000e+00,9.652337e-01,1.595026e+00,-3.476632e-03,3.476632e-03,3.476632e-03,3.185944e+00
9.600000e-05,1.000000e+00,9.715160e-01,1.598189e+00,-2.848399e-03,2.848399e-03,2.848399e-03,3.192900e+00
9.700000e-05,1.000000e+00,9.777642e-01,1.600725e+00,-2.223583e-03,2.223583e-03,2.223583e-03,3.198601e+00
9.800000e-05,1.000000e+00,9.839723e-01,1.602638e+00,-1.602770e-03,1.602770e-03,1.602770e-03,3.203052e+00
9.900000e-05,1.000000e+00,9.901346e-01,1.603932e+00,-9.865385e-04,9.865385e-04,9.865385e-04,3.206262e+00
1.000000e-04,1.000000e+00,9.962454e-01,1.604613e+00,-3.754556e-04,3.754556e-04,3.754556e-04,3.208240e+00
1.010000e-04,1.000000e+00,1.002299e+00,1.604686e+00,2.299218e-04,-2.299218e-04,-2.299218e-04,3.208997e+00
1.020000e-04,1.000000e+00,1.008290e+00,1.604157e+00,8.290483e-04,-8.290483e-04,-8.290483e-04,3.208543e+00
1.030000e-04,1.000000e+00,1.014214e+00,1.603031e+00,1.421390e-03,-1.421390e-03,-1.421390e-03,3.206892e+00
1.040000e-04,1.000000e+00,1.020064e+00,1.601318e+00,2.006426e-03,-2.006426e-03,-2.006426e-03,3.204056e+00
1.050000e-04,1.000000e+00,1.025836e+00,1.599022e+00,2.583645e-03,-2.583645e-03,-2.583645e-03,3.200051e+00
1.060000e-04,1.000000e+00,1.031526e+00,1.596154e+00,3.152553e-03,-3.152553e-03,-3.152553e-03,3.194892e+00
1.070000e-04,1.000000e+00,1.037127e+00,1.592722e+00,3.712665e-03,-3.712665e-03,-3.712665e-03,3.188596e+00
1.080000e-04,1.000000e+00,1.042635e+00,1.588734e+00,4.263511e-03,-4.263511e-03,-4.263511e-03,3.181180e+00
1.090000e-04,1.000000e+00,1.048046e+00,1.584200e+00,4.804637e-03,-4.804637e-03,-4.804637e-03,3.172663e+00
1.100000e-04,1.000000e+00,1.053356e+00,1.579129e+00,5.335601e-03,-5.335601e-03,-5.335601e-03,3.163064e+00
1.110000e-04,1.000000e+00,1.058560e+00,1.573534e+00,5.855974e-03,-5.855974e-03,-5.855974e-03,3.152403e+00
1.120000e-04,1.000000e+00,1.063653e+00,1.567423e+00,6.365346e-03,-6.365346e-03,-6.365346e-03,3.140702e+00
1.130000e-04,1.000000e+00,1.068633e+00,1.560809e+00,6.863319e-03,-6.863319e-03,-6.863319e-03,3.127983e+00
1.140000e-04,1.000000e+00,1.073495e+00,1.553702e+00,7.349510e-03,-7.349510e-03,-7.349510e-03,3.114268e+00
1.150000e-04,1.000000e+00,1.078236e+00,1.546116e+00,7.823554e-03,-7.823554e-03,-7.823554e-03,3.099581e+00
1.160000e-04,1.000000e+00,1.082851e+00,1.538061e+00,8.285099e-03,-8.285099e-03,-8.285099e-03,3.083946e+00
1.170000e-04,1.000000e+00,1.087338e+00,1.529552e+00,8.733811e-03,-8.733811e-03,-8.733811e-03,3.067389e+00
1.180000e-04,1.000000e+00,1.091694e+00,1.520600e+00,9.169372e-03,-9.169372e-03,-9.169372e-03,3.049935e+00
1.190000e-04,1.000000e+00,1.095915e+00,1.511220e+00,9.591478e-03,-9.591478e-03,-9.591478e-03,3.031609e+00
1.200000e-04,1.000000e+00,1.099998e+00,1.501424e+00,9.999843e-03,-9.999843e-03,-9.999843e-03,3.012440e+00
1.210000e-04,1.000000e+00,1.103942e+00,1.491227e+00,1.039420e-02,-1.039420e-02,-1.039420e-02,2.992454e+00
1.220000e-04,1.000000e+00,1.107743e+00,1.480643e+00,1.077429e-02,-1.077429e-02,-1.077429e-02,2.971680e+00
1.230000e-04,1.000000e+00,1.111399e+00,1.469686e+00,1.113988e-02,-1.113988e-02,-1.113988e-02,2.950146e+00
1.240000e-04,1.000000e+00,1.114908e+00,1.458371e+00,1.149076e-02,-1.149076e-02,-1.149076e-02,2.927881e+00
1.250000e-04,1.000000e+00,1.118267e+00,1.446712e+00,1.182671e-02,-1.182671e-02,-1.182671e-02,2.904915e+00
1.260000e-04,1.000000e+00,1.121476e+00,1.434725e+00,1.214756e-02,-1.214756e-02,-1.214756e-02,2.881276e+00
1.270000e-04,1.000000e+00,1.124531e+00,1.422424e+00,1.245313e-02,-1.245313e-02,-1.245313e-02,2.856996e+00
1.280000e-04,1.000000e+00,1.127433e+00,1.409826e+00,1.274328e-02,-1.274328e-02,-1.274328e-02,2.832106e+00
1.290000e-04,1.000000e+00,1.130179e+00,1.396946e+00,1.301786e-02,-1.301786e-02,-1.301786e-02,2.806635e+00
1.300000e-04,1.000000e+00,1.132768e+00,1.383798e+00,1.327675e-02,-1.327675e-02,-1.327675e-02,2.780615e+00
1.310000e-04,1.000000e+00,1.135199e+00,1.370400e+00,1.351987e-02,-1.351987e-02,-1.351987e-02,2.754077e+00
1.320000e-04,1.000000e+00,1.137471e+00,1.356767e+00,1.374712e-02,-1.374712e-02,-1.374712e-02,2.727053e+00
1.330000e-04,1.000000e+00,1.139584e+00,1.342914e+00,1.395843e-02,-1.395843e-02,-1.395843e-02,2.699575e+00
1.340000e-04,1.000000e+00,1.141538e+00,1.328858e+00,1.415376e-02,-1.415376e-02,-1.415376e-02,2.671674e+00
1.350000e-04,1.000000e+00,1.143331e+00,1.314614e+00,1.433306e-02,-1.433306e-02,-1.433306e-02,2.643382e+00
1.360000e-04,1.000000e+00,1.144963e+00,1.300200e+00,1.449632e-02,-1.449632e-02,-1.449632e-02,2.614732e+00
1.370000e-04,1.000000e+00,1.146435e+00,1.285630e+00,1.464353e-02,-1.464353e-02,-1.464353e-02,2.585756e+00
1.380000e-04,1.000000e+00,1.147747e+00,1.270921e+00,1.477472e-02,-1.477472e-02,-1.477472e-02,2.556485e+00
1.390000e-04,1.000000e+00,1.148899e+00,1.256088e+00,1.488990e-02,-1.488990e-02,-1.488990e-02,2.526951e+00
1.400000e-04,1.000000e+00,1.149891e+00,1.241149e+00,1.498912e-02,-1.498912e-02,-1.498912e-02,2.497187e+00
1.410000e-04,1.000000e+00,1.150724e+00,1.226118e+00,1.507245e-02,-1.507245e-02,-1.507245e-02,2.467225e+00
1.420000e-04,1.000000e+00,1.151399e+00,1.211012e+00,1.513995e-02,-1.513995e-02,-1.513995e-02,2.437096e+00
1.430000e-04,1.000000e+00,1.151917e+00,1.195846e+00,1.519172e-02,-1.519172e-02,-1.519172e-02,2.406832e+00
1.440000e-04,1.000000e+00,1.152279e+00,1.180636e+00,1.522786e-02,-1.522786e-02,-1.522786e-02,2.376464e+00
1.450000e-04,1.000000e+00,1.152485e+00,1.165398e+00,1.524850e-02,-1.524850e-02,-1.524850e-02,2.346024e+00
1.460000e-04,1.000000e+00,1.152538e+00,1.150147e+00,1.525376e-02,-1.525376e-02,-1.525376e-02,2.315542e+00
1.470000e-04,1.000000e+00,1.152438e+00,1.134898e+00,1.524379e-02,-1.524379e-02,-1.524379e-02,2.285050e+00
1.480000e-04,1.000000e+00,1.152188e+00,1.119667e+00,1.521876e-02,-1.521876e-02,-1.521876e-02,2.254577e+00
1.490000e-04,1.000000e+00,1.151788e+00,1.104468e+00,1.517884e-02,-1.517884e-02,-1.517884e-02,2.224155e+00
1.500000e-04,1.000000e+00,1.151242e+00,1.089316e+00,1.512422e-02,-1.512422e-02,-1.512422e-02,2.193812e+00
1.510000e-04,1.000000e+00,1.150551e+00,1.074227e+00,1.505509e-02,-1.505509e-02,-1.505509e-02,2.163578e+00
1.520000e-04,1.000000e+00,1.149717e+00,1.059213e+00,1.497168e-02,-1.497168e-02,-1.497168e-02,2.133482e+00
1.530000e-04,1.000000e+00,1.148742e+00,1.044290e+00,1.487420e-02,-1.487420e-02,-1.487420e-02,2.103552e+00
1.540000e-04,1.000000e+00,1.147629e+00,1.029472e+00,1.476290e-02,-1.476290e-02,-1.476290e-02,2.073818e+00
1.550000e-04,1.000000e+00,1.146380e+00,1.014771e+00,1.463802e-02,-1.463802e-02,-1.463802e-02,2.044306e+00
1.560000e-04,1.000000e+00,1.144998e+00,1.000202e+00,1.449981e-02,-1.449981e-02,-1.449981e-02,2.015043e+00
1.570000e-04,1.000000e+00,1.143486e+00,9.857783e-01,1.434856e-02,-1.434856e-02,-1.434856e-02,1.986056e+00
1.580000e-04,1.000000e+00,1.141845e+00,9.715117e-01,1.418454e-02,-1.418454e-02,-1.418454e-02,1.957372e+00
1.590000e-04,1.000000e+00,1.140080e+00,9.574154e-01,1.400804e-02,-1.400804e-02,-1.400804e-02,1.929015e+00
1.600000e-04,1.000000e+00,1.138194e+00,9.435017e-01,1.381936e-02,-1.381936e-02,-1.381936e-02,1.901012e+00
1.610000e-04,1.000000e+00,1.136188e+00,9.297826e-01,1.361882e-02,-1.361882e-02,-1.361882e-02,1.873385e+00
1.620000e-04,1.000000e+00,1.134067e+00,9.162699e-01,1.340671e-02,-1.340671e-02,-1.340671e-02,1.846159e+00
1.630000e-04,1.000000e+00,1.131834e+00,9.029748e-01,1.318339e-02,-1.318339e-02,-1.318339e-02,1.819356e+00
1.640000e-04,1.000000e+00,1.129492e+00,8.899086e-01,1.294916e-02,-1.294916e-02,-1.294916e-02,1.793000e+00
1.650000e-04,1.000000e+00,1.127044e+00,8.770818e-01,1.270439e-02,-1.270439e-02,-1.270439e-02,1.767113e+00
1.660000e-04,1.000000e+00,1.124494e+00,8.645049e-01,1.244942e-02,-1.244942e-02,-1.244942e-02,1.741714e+00
1.670000e-04,1.000000e+00,1.121846e+00,8.521879e-01,1.218459e-02,-1.218459e-02,-1.218459e-02,1.716825e+00
1.680000e-04,1.000000e+00,1.119103e+00,8.401404e-01,1.191028e-02,-1.191028e-02,-1.191028e-02,1.692465e+00
1.690000e-04,1.000000e+00,1.116269e+00,8.283719e-01,1.162685e-02,-1.162685e-02,-1.162685e-02,1.668654e+00
1.700000e-04,1.000000e+00,1.113347e+00,8.168911e-01,1.133468e-02,-1.133468e-02,-1.133468e-02,1.645409e+00
1.710000e-04,1.000000e+00,1.110341e+00,8.057067e-01,1.103413e-02,-1.103413e-02,-1.103413e-02,1.622748e+00
1.720000e-04,1.000000e+00,1.107256e+00,7.948268e-01,1.072560e-02,-1.072560e-02,-1.072560e-02,1.600688e+00
1.730000e-04,1.000000e+00,1.104095e+00,7.842593e-01,1.040947e-02,-1.040947e-02,-1.040947e-02,1.579244e+00
1.740000e-04,1.000000e+00,1.100861e+00,7.740115e-01,1.008613e-02,-1.008613e-02,-1.008613e-02,1.558432e+00
1.750000e-04,1.000000e+00,1.097560e+00,7.640905e-01,9.755966e-03,-9.755966e-03,-9.755966e-03,1.538267e+00
1.760000e-04,1.000000e+00,1.094194e+00,7.545028e-01,9.419385e-03,-9.419385e-03,-9.419385e-03,1.518762e+00
1.770000e-04,1.000000e+00,1.090768e+00,7.452547e-01,9.076783e-03,-9.076783e-03,-9.076783e-03,1.499929e+00
1.780000e-04,1.000000e+00,1.087286e+00,7.363520e-01,8.728560e-03,-8.728560e-03,-8.728560e-03,1.481781e+00
1.790000e-04,1.000000e+00,1.083751e+00,7.278002e-01,8.375118e-03,-8.375118e-03,-8.375118e-03,1.464329e+00
1.800000e-04,1.000000e+00,1.080169e+00,7.196042e-01,8.016860e-03,-8.016860e-03,-8.016860e-03,1.447584e+00
1.810000e-04,1.000000e+00,1.076542e+00,7.117687e-01,7.654191e-03,-7.654191e-03,-7.654191e-03,1.431554e+00
1.820000e-04,1.000000e+00,1.072875e+00,7.042978e-01,7.287516e-03,-7.287516e-03,-7.287516e-03,1.416250e+00
1.830000e-04,1.000000e+00,1.069172e+00,6.971954e-01,6.917239e-03,-6.917239e-03,-6.917239e-03,1.401678e+00
1.840000e-04,1.000000e+00,1.065438e+00,6.904649e-01,6.543764e-03,-6.543764e-03,-6.543764e-03,1.387847e+00
1.850000e-04,1.000000e+00,1.061675e+00,6.841093e-01,6.167495e-03,-6.167495e-03,-6.167495e-03,1.374762e+00
1.860000e-04,1.000000e+00,1.057888e+00,6.781311e-01,5.788833e-03,-5.788833e-03,-5.788833e-03,1.362430e+00
1.870000e-04,1.000000e+00,1.054082e+00,6.725326e-01,5.408180e-03,-5.408180e-03,-5.408180e-03,1.350854e+00
1.880000e-04,1.000000e+00,1.050259e+00,6.673156e-01,5.025934e-03,-5.025934e-03,-5.025934e-03,1.340039e+00
